
**** 02/15/18 23:04:17 ******* PSpice Lite (March 2016) ******* ID# 10813 ****

 ** Profile: "SCHEMATIC1-anothersim"  [ C:\Users\Or\Desktop\pspicecircuits\0602proj-pspicefiles\schematic1\anothersim.sim ] 


 ****     CIRCUIT DESCRIPTION


******************************************************************************




** Creating circuit file "anothersim.cir" 
** WARNING: THIS AUTOMATICALLY GENERATED FILE MAY BE OVERWRITTEN BY SUBSEQUENT SIMULATIONS

*Libraries: 
* Profile Libraries :
* Local Libraries :
.LIB "../../../0602proj-pspicefiles/0602proj.lib" 
* From [PSPICE NETLIST] section of C:\Users\Or\AppData\Roaming\SPB_Data\cdssetup\OrCAD_PSpice\17.2.0\PSpice.ini file:
.lib "nomd.lib" 

*Analysis directives: 
.AC DEC 1000 100Hz 100MegHz
.OPTIONS ADVCONV
.PROBE64 V(alias(*)) I(alias(*)) W(alias(*)) D(alias(*)) NOISE(alias(*)) 
.INC "..\SCHEMATIC1.net" 



**** INCLUDING SCHEMATIC1.net ****
* source 0602PROJ
R_R1         1C N12499  1k TC=0,0 
Q_Q1         1C N12567 1E QbreakN 
R_R17         N12567 N12499  100 TC=0,0 
R_R2         N12647 1E  18k TC=0,0 
V_V1         VIN 0 DC 0Vdc AC 1mVac 
V_V3         N12499 0 5Vdc
V_V2         0 N12647 5Vdc
C_C1         VIN 1E  150u  TC=0,0 
R_R18         4B N12499  9.5k TC=0,0 
R_R19         N12647 4B  9.5k TC=0,0 
Q_Q4         N14145 4B 4E QbreakN 
R_R20         N12647 4E  8.9k TC=0,0 
R_R21         N14145 N12499  8.9k TC=0,0 
C_C2         1C 2B  7.364n  TC=0,0 
R_R22         N12647 2B  10k TC=0,0 
R_R23         2B N12499  90k TC=0,0 
Q_Q2         2C 2B N15225 QbreakN 
R_R24         2C N12499  0.5k TC=0,0 
R_R25         N12647 N15225  18 TC=0,0 
C_C3         2C 3B  8.648n  TC=0,0 
C_C4         4E VOUT  150u  TC=0,0 
R_R26         0 VOUT  2meg TC=0,0 
R_R27         3B N12499  90k TC=0,0 
R_R28         N12647 3B  10k TC=0,0 
Q_Q3         3C 3B N17330 Qbreakn 
R_R29         3C N12499  0.5k TC=0,0 
R_R30         N12647 N17330  18 TC=0,0 
C_C5         3C 4B  150u  TC=0,0 
C_C6         1C N12499  230p  TC=0,0 

**** RESUMING anothersim.cir ****
.END

**** 02/15/18 23:04:17 ******* PSpice Lite (March 2016) ******* ID# 10813 ****

 ** Profile: "SCHEMATIC1-anothersim"  [ C:\Users\Or\Desktop\pspicecircuits\0602proj-pspicefiles\schematic1\anothersim.sim ] 


 ****     BJT MODEL PARAMETERS


******************************************************************************




               QbreakN         
               NPN             
       LEVEL    1            
          IS  100.000000E-18 
          BF  100            
          NF    1            
          BR    1            
          NR    1            
         ISS    0            
          RE    0            
          RC    0            
         CJE    0            
         VJE     .75         
         CJC    0            
         VJC     .75         
         MJC     .33         
        XCJC    1            
         CJS    0            
         VJS     .75         
          KF    0            
          AF    1            
          CN    2.42         
           D     .87         


**** 02/15/18 23:04:17 ******* PSpice Lite (March 2016) ******* ID# 10813 ****

 ** Profile: "SCHEMATIC1-anothersim"  [ C:\Users\Or\Desktop\pspicecircuits\0602proj-pspicefiles\schematic1\anothersim.sim ] 


 ****     SMALL SIGNAL BIAS SOLUTION       TEMPERATURE =   27.000 DEG C


******************************************************************************



 NODE   VOLTAGE     NODE   VOLTAGE     NODE   VOLTAGE     NODE   VOLTAGE


(   1C)    4.4916  (   1E)    4.2428  (   2B)   -4.1737  (   2C)    4.0350      

(   3B)   -4.1737  (   3C)    4.0350  (   4B)    -.0223  (   4E)    -.7770      

(  VIN)    0.0000  ( VOUT)    0.0000  (N12499)    5.0000 (N12567)    4.9995     

(N12647)   -5.0000 (N14145)     .8188 (N15225)   -4.9649 (N17330)   -4.9649 




    VOLTAGE SOURCE CURRENTS
    NAME         CURRENT

    V_V1         0.000E+00
    V_V3        -5.576E-03
    V_V2        -5.576E-03

    TOTAL POWER DISSIPATION   5.58E-02  WATTS



          JOB CONCLUDED

**** 02/15/18 23:04:17 ******* PSpice Lite (March 2016) ******* ID# 10813 ****

 ** Profile: "SCHEMATIC1-anothersim"  [ C:\Users\Or\Desktop\pspicecircuits\0602proj-pspicefiles\schematic1\anothersim.sim ] 


 ****     JOB STATISTICS SUMMARY


******************************************************************************



  Total job time (using Solver 1)   =         .28
